X--Trace 1::[transient: TIME],Y--Trace 1::[Sum: V(4)],,X--Trace 2::[transient: TIME],Y--Trace 2::[2ndOrderFilter: V(17)],,X--Trace 3::[transient: TIME],Y--Trace 3::[Noise: V(1)],,X--Trace 4::[transient: TIME],Y--Trace 4::[4thOrderFilter: V(5)],,X--Trace 5::[transient: TIME],Y--Trace 5::[Clean: V(2)]
0,0,,0,0,,0,0,,0,-8.382772319164835e-7,,0,0
1e-8,-0.0028443101371509495,,1e-8,-7.835958405704057e-10,,1e-8,0.0032757466628708987,,1e-8,-8.378974792429068e-7,,1e-8,0.0009424777805737995
1.0143228172198337e-8,-0.002947501485815259,,1.0143228172198337e-8,-7.930093250749055e-10,,1.0143228172198337e-8,0.005728669907486252,,1.0143228172198337e-8,-8.378931358270484e-7,,1.0143228172198337e-8,0.0009559767171050289
1.0429684516595012e-8,-0.002161387628848228,,1.0429684516595012e-8,-8.087834093267902e-10,,1.0429684516595012e-8,-0.03327071084157976,,1.0429684516595012e-8,-8.378859628534808e-7,,1.0429684516595012e-8,0.0009829745901091475
1.100259720538836e-8,0.003603267231324687,,1.100259720538836e-8,-8.26974316603892e-10,,1.100259720538836e-8,-0.06889646219535935,,1.100259720538836e-8,-8.378722369892621e-7,,1.100259720538836e-8,0.0010369703358763733
1.1511672088151543e-8,0.008686007334002363,,1.1511672088151543e-8,-8.339819055125552e-10,,1.1511672088151543e-8,-0.03966578788105165,,1.1511672088151543e-8,-8.378520191619682e-7,,1.1511672088151543e-8,0.001084949510229945
1.19908310866911e-8,0.009873639380943084,,1.19908310866911e-8,-8.367873289001714e-10,,1.19908310866911e-8,-0.002461962921390481,,1.19908310866911e-8,-8.378260587498515e-7,,1.19908310866911e-8,0.0011301091788434839
1.2602532842745639e-8,0.0068556609087274045,,1.2602532842745639e-8,-8.377773438824947e-10,,1.2602532842745639e-8,0.03267542372472189,,1.2602532842745639e-8,-8.377992994953769e-7,,1.2602532842745639e-8,0.001187760706831002
1.299776727781931e-8,0.004926872548100692,,1.299776727781931e-8,-8.375526276479332e-10,,1.299776727781931e-8,-0.0028120713407912596,,1.299776727781931e-8,-8.37792184947306e-7,,1.299776727781931e-8,0.0012250106717491599
1.3538997474574773e-8,0.004588811131882205,,1.3538997474574773e-8,-8.367258568012268e-10,,1.3538997474574773e-8,-0.0032212353592641564,,1.3538997474574773e-8,-8.377937009710459e-7,,1.3538997474574773e-8,0.001276020411617801
1.3959001090103513e-8,0.007812810560544739,,1.3959001090103513e-8,-8.35826180991895e-10,,1.3959001090103513e-8,-0.09231404514609788,,1.3959001090103513e-8,-8.377966521876915e-7,,1.3959001090103513e-8,0.0013156048161156683
1.4313924415790137e-8,0.012931593361512407,,1.4313924415790137e-8,-8.349658130392909e-10,,1.4313924415790137e-8,-0.09722823339207722,,1.4313924415790137e-8,-8.377926965552217e-7,,1.4313924415790137e-8,0.0013490555481936305
1.4583959963430988e-8,0.01561317453739371,,1.4583959963430988e-8,-8.342616148909948e-10,,1.4583959963430988e-8,-0.04237623693763466,,1.4583959963430988e-8,-8.377847713274162e-7,,1.4583959963430988e-8,0.0013745057963518448
1.4965919554099255e-8,0.015676148237749106,,1.4965919554099255e-8,-8.332113279872667e-10,,1.4965919554099255e-8,0.011182891745610933,,1.4965919554099255e-8,-8.377683096321227e-7,,1.4965919554099255e-8,0.0014105046357939595
1.5367204867326927e-8,0.016829410244519737,,1.5367204867326927e-8,-8.320560323250885e-10,,1.5367204867326927e-8,-0.08152652831493006,,1.5367204867326927e-8,-8.377499028539958e-7,,1.5367204867326927e-8,0.0014483248812615203
1.5804753858707734e-8,0.0188361997678885,,1.5804753858707734e-8,-8.30746478247052e-10,,1.5804753858707734e-8,0.005139635061145115,,1.5804753858707734e-8,-8.377318168690292e-7,,1.5804753858707734e-8,0.0014895628972249088
1.6360180260410767e-8,0.016113363257252874,,1.6360180260410767e-8,-8.290200320125979e-10,,1.6360180260410767e-8,0.003939696274417491,,1.6360180260410767e-8,-8.377146825107511e-7,,1.6360180260410767e-8,0.0015419105956387658
1.6869214925124805e-8,0.015051708873068687,,1.6869214925124805e-8,-8.273806818224268e-10,,1.6869214925124805e-8,-0.019660100640149236,,1.6869214925124805e-8,-8.377088796361001e-7,,1.6869214925124805e-8,0.0015898859759954855
1.7453849274453118e-8,0.014837824107052621,,1.7453849274453118e-8,-8.254353616397892e-10,,1.7453849274453118e-8,-0.009385382496592517,,1.7453849274453118e-8,-8.377112505539945e-7,,1.7453849274453118e-8,0.0016449864572930489
1.8355759344467304e-8,0.015570712555537396,,1.8355759344467304e-8,-8.223099745810891e-10,,1.8355759344467304e-8,-0.033042221805704604,,1.8355759344467304e-8,-8.377169500060288e-7,,1.8355759344467304e-8,0.0017299894653473092
2.0159579484495677e-8,0.022893523712213204,,2.0159579484495677e-8,-8.15628049065971e-10,,2.0159579484495677e-8,-0.04834583604072369,,2.0159579484495677e-8,-8.37696702950102e-7,,2.0159579484495677e-8,0.0018999954772208993
2.1869962326868778e-8,0.030813450064233933,,2.1869962326868778e-8,-8.08783265732299e-10,,2.1869962326868778e-8,-0.05393851651386923,,2.1869962326868778e-8,-8.37637749715799e-7,,2.1869962326868778e-8,0.002061195227243834
2.3927077698384595e-8,0.026018488947014657,,2.3927077698384595e-8,-7.999324637555666e-10,,2.3927077698384595e-8,0.016286828974270834,,2.3927077698384595e-8,-8.376042141562984e-7,,2.3927077698384595e-8,0.0022550737332057546
2.550118003629385e-8,0.018560825350582438,,2.550118003629385e-8,-7.927266652849666e-10,,2.550118003629385e-8,-0.02072569547447511,,2.550118003629385e-8,-8.3764862416558e-7,,2.550118003629385e-8,0.0024034293386977117
2.7306747330287077e-8,0.010163157380740683,,2.7306747330287077e-8,-7.840256943005325e-10,,2.7306747330287077e-8,0.03267999255255572,,2.7306747330287077e-8,-8.377321739908028e-7,,2.7306747330287077e-8,0.0025735999885206314
3.014692417026404e-8,-0.011256116149390741,,3.014692417026404e-8,-7.694621154704366e-10,,3.014692417026404e-8,0.035531897787005155,,3.014692417026404e-8,-8.378975899960023e-7,,3.014692417026404e-8,0.0028412802402839957
3.1639703529184005e-8,0.0039187902221794295,,3.1639703529184005e-8,-7.614016035286052e-10,,3.1639703529184005e-8,-0.13538337608944956,,3.1639703529184005e-8,-8.379369936682847e-7,,3.1639703529184005e-8,0.002981971314031367
3.23352706247897e-8,0.010315318510916646,,3.23352706247897e-8,-7.57556825620037e-10,,3.23352706247897e-8,-0.05302017145118959,,3.23352706247897e-8,-8.379085766802898e-7,,3.23352706247897e-8,0.003047526935258147
3.325824037386905e-8,0.022256275885630665,,3.325824037386905e-8,-7.523704880466443e-10,,3.325824037386905e-8,-0.10375126182520875,,3.325824037386905e-8,-8.378350329903594e-7,,3.325824037386905e-8,0.003134514738577689
3.379462118186279e-8,0.024597580825634797,,3.379462118186279e-8,-7.493133653660731e-10,,3.379462118186279e-8,-0.03031633591453734,,3.379462118186279e-8,-8.377864271608777e-7,,3.379462118186279e-8,0.003185067410713991
3.4384597027085547e-8,0.017932554207848384,,3.4384597027085547e-8,-7.459149411759787e-10,,3.4384597027085547e-8,0.08203495139424967,,3.4384597027085547e-8,-8.377486195303283e-7,,3.4384597027085547e-8,0.003240671292260212
3.497226711865618e-8,0.006852321668954482,,3.497226711865618e-8,-7.424933791597761e-10,,3.497226711865618e-8,0.06709032351826368,,3.497226711865618e-8,-8.377453643989294e-7,,3.497226711865618e-8,0.00329605786066229
3.5351187058420796e-8,0.001516145081653211,,3.5351187058420796e-8,-7.402684263417633e-10,,3.5351187058420796e-8,0.052031182428302396,,3.5351187058420796e-8,-8.377663413770259e-7,,3.5351187058420796e-8,0.003331770201845407
3.5729872118380605e-8,-0.004690098451792415,,3.5729872118380605e-8,-7.380304222210221e-10,,3.5729872118380605e-8,0.10658348361440964,,3.5729872118380605e-8,-8.378003389297509e-7,,3.5729872118380605e-8,0.0033674604056702544
3.607283700282533e-8,-0.009760814963320515,,3.607283700282533e-8,-7.359913190776764e-10,,3.607283700282533e-8,0.0367542979665089,,3.607283700282533e-8,-8.378383029062592e-7,,3.607283700282533e-8,0.0033997840639529413
3.6662681257857644e-8,-0.01236559243941554,,3.6662681257857644e-8,-7.324572816992954e-10,,3.6662681257857644e-8,0.020072725254140653,,3.6662681257857644e-8,-8.379063022474528e-7,,3.6662681257857644e-8,0.0034553755390196207
3.7252719604678996e-8,-0.012098178433306116,,3.7252719604678996e-8,-7.288889038529597e-10,,3.7252719604678996e-8,-0.008468549750332831,,3.7252719604678996e-8,-8.379613357211664e-7,,3.7252719604678996e-8,0.0035109853056074242
3.7906570435310407e-8,-0.009957016650002534,,3.7906570435310407e-8,-7.248969165485655e-10,,3.7906570435310407e-8,-0.008014996529495217,,3.7906570435310407e-8,-8.379954515822399e-7,,3.7906570435310407e-8,0.0035726092516417864
3.8302378289807296e-8,-0.009460038034522203,,3.8302378289807296e-8,-7.224616243614481e-10,,3.8302378289807296e-8,0.004145306327445321,,3.8302378289807296e-8,-8.38004583020977e-7,,3.8302378289807296e-8,0.0036099132363505036
3.860497305955392e-8,-0.008746806111872217,,3.860497305955392e-8,-7.205902575541769e-10,,3.860497305955392e-8,-0.012242321767776142,,3.860497305955392e-8,-8.380070666306534e-7,,3.860497305955392e-8,0.0036384321007096347
3.921016259904718e-8,-0.008112008395011036,,3.921016259904718e-8,-7.168237176381417e-10,,3.921016259904718e-8,0.013015361441426081,,3.921016259904718e-8,-8.380058741472189e-7,,3.921016259904718e-8,0.00369546982843891
3.985699773990416e-8,-0.006415046126750941,,3.985699773990416e-8,-7.12763382962973e-10,,3.985699773990416e-8,-0.033443548384233066,,3.985699773990416e-8,-8.380003055511273e-7,,3.985699773990416e-8,0.0037564325572175834
4.055870500941529e-8,-0.005352068783468081,,4.055870500941529e-8,-7.083192824044784e-10,,4.055870500941529e-8,0.02575771631101231,,4.055870500941529e-8,-8.379918384453508e-7,,4.055870500941529e-8,0.0038225668565405766
4.1289856659387384e-8,-0.011884641490668845,,4.1289856659387384e-8,-7.036464302503232e-10,,4.1289856659387384e-8,0.07165764009671086,,4.1289856659387384e-8,-8.379919535063894e-7,,4.1289856659387384e-8,0.003891476219153248
4.1982855375410623e-8,-0.01991013103068282,,4.1982855375410623e-8,-6.991788398818011e-10,,4.1982855375410623e-8,0.06323511166614691,,4.1982855375410623e-8,-8.380169754030691e-7,,4.1982855375410623e-8,0.003956789753532985
4.294888942842991e-8,-0.02583139466811859,,4.294888942842991e-8,-6.928911679658459e-10,,4.294888942842991e-8,0.03241411387506205,,4.294888942842991e-8,-8.380821530837402e-7,,4.294888942842991e-8,0.004047836237028042
4.3986570183128884e-8,-0.03313554739474565,,4.3986570183128884e-8,-6.860627225467618e-10,,4.3986570183128884e-8,0.08772711116109107,,4.3986570183128884e-8,-8.381562974464106e-7,,4.3986570183128884e-8,0.004145635252907557
4.5351199315900316e-8,-0.04630430871411873,,4.5351199315900316e-8,-6.769726539884387e-10,,4.5351199315900316e-8,0.0757873631148818,,4.5351199315900316e-8,-8.382562418262935e-7,,4.5351199315900316e-8,0.0042742483920109155
4.676854831460417e-8,-0.04929335352304029,,4.676854831460417e-8,-6.674071252137664e-10,,4.676854831460417e-8,0.0303864829660563,,4.676854831460417e-8,-8.383507897729713e-7,,4.676854831460417e-8,0.004407830248206707
4.849792053323028e-8,-0.03693939374482839,,4.849792053323028e-8,-6.55577735723888e-10,,4.849792053323028e-8,-0.022780198893972325,,4.849792053323028e-8,-8.383609747536318e-7,,4.849792053323028e-8,0.004570819557413055
5.043737048604455e-8,-0.016984761477722293,,5.043737048604455e-8,-6.421248390878046e-10,,5.043737048604455e-8,-0.031671410356268824,,5.043737048604455e-8,-8.382291061542634e-7,,5.043737048604455e-8,0.004753608188367527
5.171043031398139e-8,0.004232603063782411,,5.171043031398139e-8,-6.331974456098488e-10,,5.171043031398139e-8,-0.12782368203249458,,5.171043031398139e-8,-8.380909833446512e-7,,5.171043031398139e-8,0.004873591096000425
5.3015895590216164e-8,0.013963203311070047,,5.3015895590216164e-8,-6.239717454958721e-10,,5.3015895590216164e-8,0.03200248967598059,,5.3015895590216164e-8,-8.379412109545515e-7,,5.3015895590216164e-8,0.004996628133153491
5.427789505314448e-8,-0.005970445538092792,,5.427789505314448e-8,-6.149911048492749e-10,,5.427789505314448e-8,0.10354449411558336,,5.427789505314448e-8,-8.378998915775204e-7,,5.427789505314448e-8,0.005115568611469662
5.494575024947617e-8,-0.012708891501659174,,5.494575024947617e-8,-6.102157786130429e-10,,5.494575024947617e-8,-0.0032510475739821565,,5.494575024947617e-8,-8.379476386665053e-7,,5.494575024947617e-8,0.005178512388182682
5.5559234296132515e-8,-0.013410868377430375,,5.5559234296132515e-8,-6.058163913401601e-10,,5.5559234296132515e-8,0.031776760109613916,,5.5559234296132515e-8,-8.380052988753817e-7,,5.5559234296132515e-8,0.005236331810297949
5.6211892840683713e-8,-0.014688277405487695,,5.6211892840683713e-8,-6.011231488679887e-10,,5.6211892840683713e-8,0.0032140919105173855,,5.6211892840683713e-8,-8.380507236085611e-7,,5.6211892840683713e-8,0.005297843334158941
5.6945912046410356e-8,-0.016611775071584203,,5.6945912046410356e-8,-5.95830363839197e-10,,5.6945912046410356e-8,0.04440231843647976,,5.6945912046410356e-8,-8.380826898572694e-7,,5.6945912046410356e-8,0.005367022905202386
5.804661962878103e-8,-0.023433098297308642,,5.804661962878103e-8,-5.878674246928029e-10,,5.804661962878103e-8,0.04438341714472637,,5.804661962878103e-8,-8.381241495840247e-7,,5.804661962878103e-8,0.0054707619815973
5.864806724352232e-8,-0.02180945242528407,,5.864806724352232e-8,-5.835038261034489e-10,,5.864806724352232e-8,-0.013889065435568351,,5.864806724352232e-8,-8.381436842123423e-7,,5.864806724352232e-8,0.005527446988604643
5.92919114144063e-8,-0.014738203506237463,,5.92919114144063e-8,-5.788236884526577e-10,,5.92919114144063e-8,-0.06643436908038539,,5.92919114144063e-8,-8.381493229530553e-7,,5.92919114144063e-8,0.005588127767990921
5.99536649510641e-8,-0.002988046446872783,,5.99536649510641e-8,-5.740045453129065e-10,,5.99536649510641e-8,-0.09935244433008174,,5.99536649510641e-8,-8.3812537059585e-7,,5.99536649510641e-8,0.005650496460056185
6.038044012889705e-8,0.000005860355592332051,,6.038044012889705e-8,-5.708921328594249e-10,,6.038044012889705e-8,0.033463584709290915,,6.038044012889705e-8,-8.380923126233645e-7,,6.038044012889705e-8,0.005690719001103255
6.080720704103142e-8,-0.003303506517963626,,6.080720704103142e-8,-5.677766866542635e-10,,6.080720704103142e-8,0.03292125702679952,,6.080720704103142e-8,-8.380583358951534e-7,,6.080720704103142e-8,0.005730940762105032
6.125696677611668e-8,-0.00988170919694329,,6.125696677611668e-8,-5.644902453529614e-10,,6.125696677611668e-8,0.1151894989537969,,6.125696677611668e-8,-8.380384012851642e-7,,6.125696677611668e-8,0.0057733295405754175
6.176395651641772e-8,-0.01597270725043638,,6.176395651641772e-8,-5.607819204293056e-10,,6.176395651641772e-8,0.007827635243711457,,6.176395651641772e-8,-8.380433460776574e-7,,6.176395651641772e-8,0.005821112108667165
6.230310893950997e-8,-0.014986946030286736,,6.230310893950997e-8,-5.568346185492141e-10,,6.230310893950997e-8,-0.007010027797480532,,6.230310893950997e-8,-8.380673798623297e-7,,6.230310893950997e-8,0.0058719259309179955
6.279498558500424e-8,-0.015966274516078443,,6.279498558500424e-8,-5.532299409697633e-10,,6.279498558500424e-8,0.04893711928548326,,6.279498558500424e-8,-8.380891105290817e-7,,6.279498558500424e-8,0.005918284123093096
6.32973376788392e-8,-0.025161703216577663,,6.32973376788392e-8,-5.495456842131826e-10,,6.32973376788392e-8,0.1635410176726673,,6.32973376788392e-8,-8.381117381630608e-7,,6.32973376788392e-8,0.00596562959964979
6.4019935290553e-8,-0.038284885193749785,,6.4019935290553e-8,-5.44242330089149e-10,,6.4019935290553e-8,0.05784200482116051,,6.4019935290553e-8,-8.381699994864126e-7,,6.4019935290553e-8,0.006033732683910076
6.467473873462538e-8,-0.03633115436591494,,6.467473873462538e-8,-5.394330764824014e-10,,6.467473873462538e-8,-0.028217556686679416,,6.467473873462538e-8,-8.38236911449847e-7,,6.467473873462538e-8,0.006095446328492933
6.535825302580203e-8,-0.03555830205807363,,6.535825302580203e-8,-5.34409988224007e-10,,6.535825302580203e-8,0.08212460555411265,,6.535825302580203e-8,-8.382835006349765e-7,,6.535825302580203e-8,0.006159865898384971
6.608421666788414e-8,-0.03316035971696716,,6.608421666788414e-8,-5.29072512639865e-10,,6.608421666788414e-8,-0.06394864759809353,,6.608421666788414e-8,-8.382997317432159e-7,,6.608421666788414e-8,0.006228286213888877
6.7318157272889e-8,-0.013169643938526087,,6.7318157272889e-8,-5.199970595250383e-10,,6.7318157272889e-8,-0.05787586056825744,,6.7318157272889e-8,-8.382522359979288e-7,,6.7318157272889e-8,0.006344582120740927
6.78623009941401e-8,-0.010010621950047566,,6.78623009941401e-8,-5.159943456524877e-10,,6.78623009941401e-8,0.0168823622244967,,6.78623009941401e-8,-8.382021148666743e-7,,6.78623009941401e-8,0.00639586634263856
6.850079661097474e-8,-0.010023157168004065,,6.850079661097474e-8,-5.112979614856959e-10,,6.850079661097474e-8,-0.010893152602580851,,6.850079661097474e-8,-8.381461366245509e-7,,6.850079661097474e-8,0.006456042998764748
6.905290562799233e-8,-0.008000959720222403,,6.905290562799233e-8,-5.072376278984087e-10,,6.905290562799233e-8,-0.01976544977234657,,6.905290562799233e-8,-8.381133708683125e-7,,6.905290562799233e-8,0.00650807792625468
6.964894000034465e-8,-0.003755854755208774,,6.964894000034465e-8,-5.028557721493896e-10,,6.964894000034465e-8,-0.051721679137945155,,6.964894000034465e-8,-8.380869119159913e-7,,6.964894000034465e-8,0.006564252709091424
7.084100874504928e-8,0.01029460307556545,,7.084100874504928e-8,-4.940983932210854e-10,,7.084100874504928e-8,-0.08217629987808789,,7.084100874504928e-8,-8.380155331223732e-7,,7.084100874504928e-8,0.006676602267840449
7.149230470324419e-8,0.017171216112944414,,7.149230470324419e-8,-4.893177106856141e-10,,7.149230470324419e-8,-0.05907280414276681,,7.149230470324419e-8,-8.379600384718243e-7,,7.149230470324419e-8,0.006737985312350167
7.237646374682627e-8,0.017806238190529993,,7.237646374682627e-8,-4.828340687782664e-10,,7.237646374682627e-8,0.005975899929787841,,7.237646374682627e-8,-8.378898608213091e-7,,7.237646374682627e-8,0.006821315126238625
7.327394487039975e-8,0.015307122876136602,,7.327394487039975e-8,-4.762615411671308e-10,,7.327394487039975e-8,-0.02722239332603156,,7.327394487039975e-8,-8.378552467441305e-7,,7.327394487039975e-8,0.006905900507997003
7.419868987340818e-8,0.019644493844642362,,7.419868987340818e-8,-4.694997824063444e-10,,7.419868987340818e-8,-0.06812315372863521,,7.419868987340818e-8,-8.378464825481101e-7,,7.419868987340818e-8,0.006993055437387152
7.510993559120392e-8,0.023092295236834072,,7.510993559120392e-8,-4.6284828969072083e-10,,7.510993559120392e-8,-0.023497379891453066,,7.510993559120392e-8,-8.37830436492635e-7,,7.510993559120392e-8,0.007078938086760175
7.600667414452146e-8,0.02084274664097561,,7.600667414452146e-8,-4.5631586374877726e-10,,7.600667414452146e-8,-0.010085885880696938,,7.600667414452146e-8,-8.378125651931662e-7,,7.600667414452146e-8,0.0071634534661898525
7.747293381026947e-8,0.008309860327519451,,7.747293381026947e-8,-4.4566690957712776e-10,,7.747293381026947e-8,0.04994365071753296,,7.747293381026947e-8,-8.378441553232815e-7,,7.747293381026947e-8,0.0073016447824034245
7.853597377662318e-8,0.00002587544768357933,,7.853597377662318e-8,-4.379731896799409e-10,,7.853597377662318e-8,0.0004517758284581786,,7.853597377662318e-8,-8.379145578520116e-7,,7.853597377662318e-8,0.007401833638026364
7.933118174588678e-8,0.00556451076294443,,7.933118174588678e-8,-4.322341430814427e-10,,7.933118174588678e-8,-0.0915575031012807,,7.933118174588678e-8,-8.3795908344596e-7,,7.933118174588678e-8,0.007476779993020703
8.010328329051e-8,0.015695156312995125,,8.010328329051e-8,-4.26676602350881e-10,,8.010328329051e-8,-0.06997049558730607,,8.010328329051e-8,-8.379569142140377e-7,,8.010328329051e-8,0.007549548621029301
8.065381387642607e-8,0.014861406644082269,,8.065381387642607e-8,-4.227229048730691e-10,,8.065381387642607e-8,0.04550069638538431,,8.065381387642607e-8,-8.379311675339766e-7,,8.065381387642607e-8,0.007601434740931882
8.123630741493325e-8,0.01648357637337234,,8.123630741493325e-8,-4.1854836081982295e-10,,8.123630741493325e-8,-0.12837426265822016,,8.123630741493325e-8,-8.379050191913402e-7,,8.123630741493325e-8,0.007656333286065482
